
T0334 000:272 SEGGER J-Link V4.92 Log File (0000ms, 0261ms total)
T0334 000:272 DLL Compiled: Sep 30 2014 09:33:42 (0000ms, 0261ms total)
T0334 000:272 Logging started @ 2015-05-01 19:43 (0000ms, 0261ms total)
T0334 000:272 JLINK_SetWarnOutHandler(...) (0000ms, 0261ms total)
T0334 000:272 JLINK_OpenEx(...)
Firmware: J-Link OB-SAM3U128 V1 compiled Nov 28 2014 10:24:11
Hardware: V1.00
S/N: 480208439  returns O.K. (0259ms, 0520ms total)
T0334 000:531 JLINK_SetErrorOutHandler(...) (0000ms, 0520ms total)
T0334 000:531 JLINK_ExecCommand("ProjectFile = "C:\Users\tnesheim\Documents\GitHub\GradOS_FinalProject\NunchuckNode\JLinkSettings.ini"", ...)  returns 0x00 (0000ms, 0520ms total)
T0334 000:531 JLINK_ExecCommand("Device = nRF51822_xxAA", ...)Device "NRF51822_XXAA" selected (257 KB flash, 16 KB RAM).  returns 0x00 (0002ms, 0522ms total)
T0334 000:533 JLINK_ExecCommand("DisableConnectionTimeout", ...)  returns 0x01 (0000ms, 0522ms total)
T0334 000:533 JLINK_GetHardwareVersion()  returns 0x2710 (0000ms, 0522ms total)
T0334 000:533 JLINK_GetDLLVersion()  returns 49200 (0001ms, 0523ms total)
T0334 000:534 JLINK_GetFirmwareString(...) (0000ms, 0523ms total)
T0334 000:538 JLINK_GetDLLVersion()  returns 49200 (0000ms, 0523ms total)
T0334 000:538 JLINK_GetCompileDateTime() (0000ms, 0523ms total)
T0334 000:538 JLINK_GetFirmwareString(...) (0000ms, 0523ms total)
T0334 000:541 JLINK_GetHardwareVersion()  returns 0x2710 (0000ms, 0523ms total)
T0334 000:543 JLINK_TIF_Select(JLINKARM_TIF_SWD)  returns 0x00 (0001ms, 0524ms total)
T0334 000:544 JLINK_SetSpeed(1000) (0000ms, 0524ms total)
T0334 000:544 JLINK_GetId() >0x108 TIF>Found SWD-DP with ID 0x0BB11477 >0x35 TIF> >0x0D TIF> >0x28 TIF> >0x0D TIF> >0x28 TIF> >0x35 TIF> >0x0D TIF> >0x28 TIF> >0x35 TIF> >0x35 TIF> >0x35 TIF> >0x0D TIF> >0x28 TIF> >0x0D TIF> >0x28 TIF> >0x0D TIF> >0x28 TIF> >0x35 TIF> >0x35 TIF> >0x35 TIF> >0x0D TIF> >0x28 TIF> >0x0D TIF> >0x28 TIF> >0x35 TIF> >0x0D TIF> >0x28 TIF> >0x0D TIF> >0x28 TIF> >0x0D TIF> >0x28 TIF> >0x35 TIF> >0x35 TIF> >0x0D TIF> >0x28 TIF> >0x35 TIF> >0x35 TIF>
Found Cortex-M0 r0p0, Little endian. -- CPU_WriteMem(4 bytes @ 0xE0002000) -- CPU_ReadMem(4 bytes @ 0xE000EDF0) -- CPU_ReadMem(4 bytes @ 0xE0002000)FPUnit: 4 code (BP) slots and 0 literal slots -- CPU_ReadMem(4 bytes @ 0xE000EDFC) -- CPU_ReadMem(4 bytes @ 0xE0001000) -- CPU_WriteMem(4 bytes @ 0xE0001000) -- CPU_ReadMem(4 bytes @ 0xE00FF018) >0x35 TIF>  returns 0x0BB11477 (0018ms, 0542ms total)
T0334 000:562 JLINK_GetDLLVersion()  returns 49200 (0000ms, 0542ms total)
T0334 000:562 JLINK_CORE_GetFound()  returns 0x60000FF (0000ms, 0542ms total)
T0334 000:563 JLINK_ReadMem (0xE00FF000, 0x0020 Bytes, ...) -- CPU is running -- CPU_ReadMem(32 bytes @ 0xE00FF000) - Data: 03 F0 F0 FF 03 20 F0 FF 03 30 F0 FF 00 00 00 00 ...  returns 0x00 (0001ms, 0543ms total)
T0334 000:564 JLINK_ReadMem (0xE000EFF0, 0x0010 Bytes, ...) -- CPU is running -- CPU_ReadMem(16 bytes @ 0xE000EFF0) - Data: 0D 00 00 00 E0 00 00 00 05 00 00 00 B1 00 00 00  returns 0x00 (0001ms, 0544ms total)
T0334 000:565 JLINK_ReadMem (0xE000EFD0, 0x0020 Bytes, ...) -- CPU is running -- CPU_ReadMem(32 bytes @ 0xE000EFD0) - Data: 04 00 00 00 00 00 00 00 00 00 00 00 00 00 00 00 ...  returns 0x00 (0001ms, 0545ms total)
T0334 000:566 JLINK_ReadMem (0xE0001FF0, 0x0010 Bytes, ...) -- CPU is running -- CPU_ReadMem(16 bytes @ 0xE0001FF0) - Data: 0D 00 00 00 E0 00 00 00 05 00 00 00 B1 00 00 00  returns 0x00 (0000ms, 0545ms total)
T0334 000:566 JLINK_ReadMem (0xE0001FD0, 0x0020 Bytes, ...) -- CPU is running -- CPU_ReadMem(32 bytes @ 0xE0001FD0) - Data: 04 00 00 00 00 00 00 00 00 00 00 00 00 00 00 00 ...  returns 0x00 (0001ms, 0546ms total)
T0334 000:567 JLINK_ReadMem (0xE0002FF0, 0x0010 Bytes, ...) -- CPU is running -- CPU_ReadMem(16 bytes @ 0xE0002FF0) - Data: 0D 00 00 00 E0 00 00 00 05 00 00 00 B1 00 00 00  returns 0x00 (0001ms, 0547ms total)
T0334 000:568 JLINK_ReadMem (0xE0002FD0, 0x0020 Bytes, ...) -- CPU is running -- CPU_ReadMem(32 bytes @ 0xE0002FD0) - Data: 04 00 00 00 00 00 00 00 00 00 00 00 00 00 00 00 ...  returns 0x00 (0001ms, 0548ms total)
T0334 000:569 JLINK_ReadMemU32(0xE000ED00, 0x0001 Items, ...) -- CPU is running -- CPU_ReadMem(4 bytes @ 0xE000ED00) - Data: 00 C2 0C 41  returns 0x01 (0001ms, 0549ms total)
T0334 000:570 JLINK_SetResetType(JLINKARM_RESET_TYPE_NORMAL)  returns JLINKARM_RESET_TYPE_NORMAL (0000ms, 0549ms total)
T0334 000:570 JLINK_Reset() -- CPU is running -- CPU_WriteMem(4 bytes @ 0xE000EDF0) -- CPU is running -- CPU_WriteMem(4 bytes @ 0xE000EDFC) >0x35 TIF> -- CPU is running -- CPU_WriteMem(4 bytes @ 0xE000ED0C) -- CPU is running -- CPU_ReadMem(4 bytes @ 0xE000EDF0) -- CPU is running -- CPU_ReadMem(4 bytes @ 0xE000EDF0) -- CPU is running -- CPU_WriteMem(4 bytes @ 0xE000EDF0) -- CPU is running -- CPU_WriteMem(4 bytes @ 0xE000EDFC) -- CPU is running -- CPU_ReadMem(4 bytes @ 0xE000EDF0)
 -- CPU_WriteMem(4 bytes @ 0xE0002000) -- CPU_ReadMem(4 bytes @ 0xE000EDFC) -- CPU_ReadMem(4 bytes @ 0xE0001000) -- CPU_WriteMem(4 bytes @ 0xE0001000) (0020ms, 0569ms total)
T0334 000:590 JLINK_ReadReg(R15 (PC))  returns 0x000001A4 (0000ms, 0569ms total)
T0334 000:590 JLINK_ReadReg(XPSR)  returns 0xC1000000 (0000ms, 0569ms total)
T0334 000:590 JLINK_Halt()  returns 0x00 (0000ms, 0569ms total)
T0334 000:590 JLINK_IsHalted()  returns TRUE (0000ms, 0569ms total)
T0334 000:590 JLINK_ReadMemU32(0xE000EDF0, 0x0001 Items, ...) -- CPU_ReadMem(4 bytes @ 0xE000EDF0) - Data: 03 00 03 00  returns 0x01 (0001ms, 0570ms total)
T0334 000:591 JLINK_WriteU32(0xE000EDF0, 0xA05F0003) -- CPU_WriteMem(4 bytes @ 0xE000EDF0)  returns 0x00 (0001ms, 0571ms total)
T0334 000:592 JLINK_WriteU32(0xE000EDFC, 0x01000000) -- CPU_WriteMem(4 bytes @ 0xE000EDFC)  returns 0x00 (0001ms, 0572ms total)
T0334 000:593 JLINK_GetHWStatus(...)  returns 0x00 (0000ms, 0572ms total)
T0334 000:593 JLINK_GetNumBPUnits(Type = 0xFFFFFF00)  returns 0x04 (0000ms, 0572ms total)
T0334 000:593 JLINK_GetNumBPUnits(Type = 0xF0)  returns 0x2000 (0001ms, 0573ms total)
T0334 000:594 JLINK_GetNumWPUnits()  returns 0x02 (0000ms, 0573ms total)
T0334 000:594 JLINK_GetSpeed()  returns 0x3E8 (0000ms, 0573ms total)
T0334 000:594 JLINK_ReadMemU32(0xE000E004, 0x0001 Items, ...) -- CPU_ReadMem(4 bytes @ 0xE000E004) - Data: 00 00 00 00  returns 0x01 (0001ms, 0574ms total)
T0334 000:595 JLINK_ReadReg(R15 (PC))  returns 0x000001A4 (0000ms, 0574ms total)
T0334 000:595 JLINK_ReadReg(XPSR)  returns 0xC1000000 (0000ms, 0574ms total)
T0334 000:653 JLINK_SetResetType(JLINKARM_RESET_TYPE_NORMAL)  returns JLINKARM_RESET_TYPE_NORMAL (0000ms, 0574ms total)
T0334 000:653 JLINK_Reset() -- CPU_WriteMem(4 bytes @ 0xE000EDF0) -- CPU_WriteMem(4 bytes @ 0xE000EDFC) >0x35 TIF> -- CPU_WriteMem(4 bytes @ 0xE000ED0C) -- CPU_ReadMem(4 bytes @ 0xE000EDF0) -- CPU_ReadMem(4 bytes @ 0xE000EDF0) -- CPU_WriteMem(4 bytes @ 0xE000EDF0) -- CPU_WriteMem(4 bytes @ 0xE000EDFC) -- CPU is running -- CPU_ReadMem(4 bytes @ 0xE000EDF0) -- CPU_WriteMem(4 bytes @ 0xE0002000) -- CPU_ReadMem(4 bytes @ 0xE000EDFC) -- CPU_ReadMem(4 bytes @ 0xE0001000) -- CPU_WriteMem(4 bytes @ 0xE0001000)
 (0020ms, 0594ms total)
T0334 000:673 JLINK_ReadReg(R15 (PC))  returns 0x000001A4 (0000ms, 0594ms total)
T0334 000:673 JLINK_ReadReg(XPSR)  returns 0xC1000000 (0000ms, 0594ms total)
T0334 000:674 JLINK_ReadMem (0x000001A4, 0x003C Bytes, ...) -- CPU_ReadMem(128 bytes @ 0x00000180) -- Updating C cache (128 bytes @ 0x00000180) -- Read from C cache (60 bytes @ 0x000001A4) - Data: 03 21 0C 48 02 68 0A 43 02 60 0B 48 02 68 0A 43 ...  returns 0x00 (0002ms, 0596ms total)
T0334 001:320 JLINK_ReadMem (0x00000000, 0x0168 Bytes, ...) -- CPU_ReadMem(384 bytes @ 0x00000000) -- Updating C cache (384 bytes @ 0x00000000) -- Read from C cache (360 bytes @ 0x00000000) - Data: 68 10 00 20 A5 01 00 00 BF 01 00 00 C1 01 00 00 ...  returns 0x00 (0006ms, 0602ms total)
T1C90 001:330 JLINK_SetBPEx(Addr = 0x0000038C, Type = 0xFFFFFFF2)  returns 0x00000001 (0000ms, 0602ms total)
T1C90 001:330 JLINK_Go() -- CPU_WriteMem(4 bytes @ 0xE0002000) -- CPU_WriteMem(4 bytes @ 0xE0002008) -- CPU_WriteMem(4 bytes @ 0xE000200C) -- CPU_WriteMem(4 bytes @ 0xE0002010) -- CPU_WriteMem(4 bytes @ 0xE0002014) -- CPU_WriteMem(4 bytes @ 0xE0001004) (0004ms, 0606ms total)
T1C90 001:434 JLINK_IsHalted()  returns TRUE (0004ms, 0610ms total)
T1C90 001:438 JLINK_Halt()  returns 0x00 (0000ms, 0606ms total)
T1C90 001:438 JLINK_IsHalted()  returns TRUE (0000ms, 0606ms total)
T1C90 001:438 JLINK_IsHalted()  returns TRUE (0000ms, 0606ms total)
T1C90 001:438 JLINK_IsHalted()  returns TRUE (0000ms, 0606ms total)
T1C90 001:438 JLINK_ReadReg(R15 (PC))  returns 0x0000038C (0000ms, 0606ms total)
T1C90 001:438 JLINK_ReadReg(XPSR)  returns 0x01000000 (0000ms, 0606ms total)
T1C90 001:438 JLINK_ClrBPEx(BPHandle = 0x00000001)  returns 0x00 (0000ms, 0606ms total)
T1C90 001:438 JLINK_ReadMemU32(0xE000ED30, 0x0001 Items, ...) -- CPU_ReadMem(4 bytes @ 0xE000ED30) - Data: 03 00 00 00  returns 0x01 (0001ms, 0607ms total)
T1C90 001:439 JLINK_ReadMemU32(0xE0001028, 0x0001 Items, ...) -- CPU_ReadMem(4 bytes @ 0xE0001028) - Data: 00 00 00 00  returns 0x01 (0000ms, 0607ms total)
T1C90 001:439 JLINK_ReadMemU32(0xE0001038, 0x0001 Items, ...) -- CPU_ReadMem(4 bytes @ 0xE0001038) - Data: 00 00 00 00  returns 0x01 (0001ms, 0608ms total)
T1C90 001:440 JLINK_ReadReg(R0)  returns 0x20000068 (0000ms, 0608ms total)
T1C90 001:440 JLINK_ReadReg(R1)  returns 0x20000868 (0000ms, 0608ms total)
T1C90 001:440 JLINK_ReadReg(R2)  returns 0x20000868 (0000ms, 0608ms total)
T1C90 001:440 JLINK_ReadReg(R3)  returns 0x20000868 (0000ms, 0608ms total)
T1C90 001:440 JLINK_ReadReg(R4)  returns 0x000007F4 (0000ms, 0608ms total)
T1C90 001:440 JLINK_ReadReg(R5)  returns 0x20000004 (0000ms, 0608ms total)
T1C90 001:440 JLINK_ReadReg(R6)  returns 0x00000000 (0000ms, 0608ms total)
T1C90 001:440 JLINK_ReadReg(R7)  returns 0x00000000 (0000ms, 0608ms total)
T1C90 001:440 JLINK_ReadReg(R8)  returns 0xFFFFFFFF (0000ms, 0608ms total)
T1C90 001:440 JLINK_ReadReg(R9)  returns 0xFFFFFFFF (0000ms, 0608ms total)
T1C90 001:440 JLINK_ReadReg(R10)  returns 0x000007F4 (0000ms, 0608ms total)
T1C90 001:440 JLINK_ReadReg(R11)  returns 0x000007F4 (0000ms, 0608ms total)
T1C90 001:440 JLINK_ReadReg(R12)  returns 0xFFFFFFFF (0000ms, 0608ms total)
T1C90 001:440 JLINK_ReadReg(R13 (SP))  returns 0x20001068 (0000ms, 0608ms total)
T1C90 001:440 JLINK_ReadReg(R14)  returns 0x00000153 (0000ms, 0608ms total)
T1C90 001:440 JLINK_ReadReg(R15 (PC))  returns 0x0000038C (0000ms, 0608ms total)
T1C90 001:440 JLINK_ReadReg(XPSR)  returns 0x01000000 (0000ms, 0608ms total)
T1C90 001:440 JLINK_ReadReg(MSP)  returns 0x20001068 (0000ms, 0608ms total)
T1C90 001:440 JLINK_ReadReg(PSP)  returns 0xFFFFFFFC (0000ms, 0608ms total)
T1C90 001:440 JLINK_ReadReg(CFBP)  returns 0x00000000 (0000ms, 0608ms total)
T0334 001:440 JLINK_ReadMem (0x00000000, 0x0001 Bytes, ...) -- CPU_ReadMem(64 bytes @ 0x00000000) -- Updating C cache (64 bytes @ 0x00000000) -- Read from C cache (1 bytes @ 0x00000000) - Data: 68  returns 0x00 (0002ms, 0610ms total)
T0334 001:442 JLINK_ReadMem (0x00000000, 0x0004 Bytes, ...) -- Read from C cache (4 bytes @ 0x00000000) - Data: 68 10 00 20  returns 0x00 (0000ms, 0610ms total)
T0334 001:457 JLINK_ReadMem (0x00000394, 0x003C Bytes, ...) -- CPU_ReadMem(128 bytes @ 0x00000380) -- Updating C cache (128 bytes @ 0x00000380) -- Read from C cache (60 bytes @ 0x00000394) - Data: 68 46 00 F0 0D F8 FB E7 70 B5 04 46 00 25 04 E0 ...  returns 0x00 (0002ms, 0612ms total)
T1C90 010:311 JLINK_Go() -- CPU_WriteMem(4 bytes @ 0xE0002008) (0002ms, 0614ms total)
T1C90 010:413 JLINK_IsHalted()  returns FALSE (0000ms, 0614ms total)
T1C90 010:513 JLINK_IsHalted()  returns FALSE (0000ms, 0614ms total)
T1C90 010:613 JLINK_IsHalted()  returns FALSE (0000ms, 0614ms total)
T1C90 010:713 JLINK_IsHalted()  returns FALSE (0000ms, 0614ms total)
T1C90 010:813 JLINK_IsHalted()  returns FALSE (0000ms, 0614ms total)
T1C90 010:913 JLINK_IsHalted()  returns FALSE (0000ms, 0614ms total)
T1C90 011:013 JLINK_IsHalted()  returns FALSE (0000ms, 0614ms total)
T1C90 011:113 JLINK_IsHalted()  returns FALSE (0000ms, 0614ms total)
T1C90 011:213 JLINK_IsHalted()  returns FALSE (0000ms, 0614ms total)
T1C90 011:313 JLINK_IsHalted()  returns FALSE (0001ms, 0615ms total)
T1C90 011:414 JLINK_IsHalted()  returns FALSE (0000ms, 0614ms total)
T1C90 011:514 JLINK_IsHalted()  returns FALSE (0000ms, 0614ms total)
T1C90 011:614 JLINK_IsHalted()  returns FALSE (0000ms, 0614ms total)
T1C90 011:714 JLINK_IsHalted()  returns FALSE (0000ms, 0614ms total)
T1C90 011:814 JLINK_IsHalted()  returns FALSE (0000ms, 0614ms total)
T1C90 011:914 JLINK_IsHalted()  returns FALSE (0000ms, 0614ms total)
T1C90 012:014 JLINK_IsHalted()  returns FALSE (0000ms, 0614ms total)
T1C90 012:114 JLINK_IsHalted()  returns FALSE (0000ms, 0614ms total)
T0334 012:183 JLINK_SetBPEx(Addr = 0x00000394, Type = 0xFFFFFFF2) -- CPU is running -- CPU is running -- CPU_WriteMem(4 bytes @ 0xE0002000) -- CPU is running -- CPU_WriteMem(4 bytes @ 0xE0002008)  returns 0x00000002 (0001ms, 0615ms total)
T1C90 012:214 JLINK_IsHalted()  returns TRUE (0004ms, 0619ms total)
T1C90 012:218 JLINK_Halt()  returns 0x00 (0000ms, 0615ms total)
T1C90 012:218 JLINK_IsHalted()  returns TRUE (0000ms, 0615ms total)
T1C90 012:218 JLINK_IsHalted()  returns TRUE (0000ms, 0615ms total)
T1C90 012:218 JLINK_IsHalted()  returns TRUE (0000ms, 0615ms total)
T1C90 012:218 JLINK_ReadReg(R15 (PC))  returns 0x00000394 (0000ms, 0615ms total)
T1C90 012:218 JLINK_ReadReg(XPSR)  returns 0x01000000 (0000ms, 0615ms total)
T1C90 012:218 JLINK_ClrBPEx(BPHandle = 0x00000002)  returns 0x00 (0000ms, 0615ms total)
T1C90 012:218 JLINK_ReadMemU32(0xE000ED30, 0x0001 Items, ...) -- CPU_ReadMem(4 bytes @ 0xE000ED30) - Data: 03 00 00 00  returns 0x01 (0001ms, 0616ms total)
T1C90 012:219 JLINK_ReadMemU32(0xE0001028, 0x0001 Items, ...) -- CPU_ReadMem(4 bytes @ 0xE0001028) - Data: 00 00 00 00  returns 0x01 (0000ms, 0616ms total)
T1C90 012:219 JLINK_ReadMemU32(0xE0001038, 0x0001 Items, ...) -- CPU_ReadMem(4 bytes @ 0xE0001038) - Data: 00 00 00 00  returns 0x01 (0001ms, 0617ms total)
T1C90 012:220 JLINK_ReadReg(R0)  returns 0x00000001 (0000ms, 0617ms total)
T1C90 012:220 JLINK_ReadReg(R1)  returns 0x00000003 (0000ms, 0617ms total)
T1C90 012:220 JLINK_ReadReg(R2)  returns 0x8551837A (0000ms, 0617ms total)
T1C90 012:220 JLINK_ReadReg(R3)  returns 0x2000FB8E (0000ms, 0617ms total)
T1C90 012:220 JLINK_ReadReg(R4)  returns 0x000007F4 (0000ms, 0617ms total)
T1C90 012:220 JLINK_ReadReg(R5)  returns 0x20000004 (0000ms, 0617ms total)
T1C90 012:220 JLINK_ReadReg(R6)  returns 0x00000000 (0000ms, 0617ms total)
T1C90 012:220 JLINK_ReadReg(R7)  returns 0x00000000 (0000ms, 0617ms total)
T1C90 012:220 JLINK_ReadReg(R8)  returns 0xFFFFFFFF (0000ms, 0617ms total)
T1C90 012:220 JLINK_ReadReg(R9)  returns 0xFFFFFFFF (0000ms, 0617ms total)
T1C90 012:220 JLINK_ReadReg(R10)  returns 0x000007F4 (0000ms, 0617ms total)
T1C90 012:220 JLINK_ReadReg(R11)  returns 0x000007F4 (0000ms, 0617ms total)
T1C90 012:220 JLINK_ReadReg(R12)  returns 0xFFFFFFFF (0000ms, 0617ms total)
T1C90 012:220 JLINK_ReadReg(R13 (SP))  returns 0x20001058 (0000ms, 0617ms total)
T1C90 012:220 JLINK_ReadReg(R14)  returns 0x00000721 (0000ms, 0617ms total)
T1C90 012:220 JLINK_ReadReg(R15 (PC))  returns 0x00000394 (0000ms, 0617ms total)
T1C90 012:220 JLINK_ReadReg(XPSR)  returns 0x01000000 (0000ms, 0617ms total)
T1C90 012:220 JLINK_ReadReg(MSP)  returns 0x20001058 (0000ms, 0617ms total)
T1C90 012:220 JLINK_ReadReg(PSP)  returns 0xFFFFFFFC (0000ms, 0617ms total)
T1C90 012:220 JLINK_ReadReg(CFBP)  returns 0x00000000 (0000ms, 0617ms total)
T0334 012:220 JLINK_ReadMem (0x20001064, 0x0004 Bytes, ...) -- CPU_ReadMem(64 bytes @ 0x20001040) -- Updating C cache (64 bytes @ 0x20001040) -- Read from C cache (4 bytes @ 0x20001064) - Data: 53 01 00 00  returns 0x00 (0002ms, 0619ms total)
T0334 012:222 JLINK_ReadMem (0x00000000, 0x0001 Bytes, ...) -- CPU_ReadMem(64 bytes @ 0x00000000) -- Updating C cache (64 bytes @ 0x00000000) -- Read from C cache (1 bytes @ 0x00000000) - Data: 68  returns 0x00 (0001ms, 0620ms total)
T0334 012:223 JLINK_ReadMem (0x00000000, 0x0004 Bytes, ...) -- Read from C cache (4 bytes @ 0x00000000) - Data: 68 10 00 20  returns 0x00 (0000ms, 0620ms total)
T0334 012:225 JLINK_ReadMem (0x00000394, 0x003C Bytes, ...) -- CPU_ReadMem(128 bytes @ 0x00000380) -- Updating C cache (128 bytes @ 0x00000380) -- Read from C cache (60 bytes @ 0x00000394) - Data: 68 46 00 F0 0D F8 FB E7 70 B5 04 46 00 25 04 E0 ...  returns 0x00 (0003ms, 0624ms total)
T0334 013:907 JLINK_ReadMem (0x20001058, 0x0001 Bytes, ...) -- Read from C cache (1 bytes @ 0x20001058) - Data: 7A  returns 0x00 (0000ms, 0624ms total)
T0334 013:907 JLINK_ReadMem (0x20001059, 0x0001 Bytes, ...) -- Read from C cache (1 bytes @ 0x20001059) - Data: 83  returns 0x00 (0000ms, 0624ms total)
T0334 013:907 JLINK_ReadMem (0x2000105A, 0x0002 Bytes, ...) -- Read from C cache (2 bytes @ 0x2000105A) - Data: 46 01  returns 0x00 (0000ms, 0624ms total)
T0334 013:907 JLINK_ReadMem (0x2000105C, 0x0002 Bytes, ...) -- Read from C cache (2 bytes @ 0x2000105C) - Data: 17 02  returns 0x00 (0000ms, 0624ms total)
T0334 013:907 JLINK_ReadMem (0x2000105E, 0x0002 Bytes, ...) -- Read from C cache (2 bytes @ 0x2000105E) - Data: 3B 02  returns 0x00 (0000ms, 0624ms total)
T0334 013:907 JLINK_ReadMem (0x20001060, 0x0001 Bytes, ...) -- Read from C cache (1 bytes @ 0x20001060) - Data: 01  returns 0x00 (0000ms, 0624ms total)
T0334 013:907 JLINK_ReadMem (0x20001061, 0x0001 Bytes, ...) -- Read from C cache (1 bytes @ 0x20001061) - Data: 01  returns 0x00 (0000ms, 0624ms total)
T1C90 028:783 JLINK_Step() -- Read from C cache (2 bytes @ 0x00000394) -- CPU_ReadMem(4 bytes @ 0xE0001004) -- Simulated  returns 0x00 (0001ms, 0625ms total)
T1C90 028:784 JLINK_ReadReg(R15 (PC))  returns 0x00000396 (0000ms, 0625ms total)
T1C90 028:784 JLINK_ReadReg(XPSR)  returns 0x01000000 (0000ms, 0625ms total)
T1C90 028:784 JLINK_SetBPEx(Addr = 0x00000394, Type = 0xFFFFFFF2)  returns 0x00000003 (0000ms, 0625ms total)
T1C90 028:784 JLINK_Go() -- CPU_WriteMem(4 bytes @ 0xE0002000) -- CPU_WriteMem(4 bytes @ 0xE0001004) (0002ms, 0627ms total)
T1C90 028:886 JLINK_IsHalted()  returns TRUE (0004ms, 0631ms total)
T1C90 028:890 JLINK_Halt()  returns 0x00 (0000ms, 0627ms total)
T1C90 028:890 JLINK_IsHalted()  returns TRUE (0000ms, 0627ms total)
T1C90 028:890 JLINK_IsHalted()  returns TRUE (0000ms, 0627ms total)
T1C90 028:890 JLINK_IsHalted()  returns TRUE (0000ms, 0627ms total)
T1C90 028:890 JLINK_ReadReg(R15 (PC))  returns 0x00000394 (0000ms, 0627ms total)
T1C90 028:890 JLINK_ReadReg(XPSR)  returns 0x01000000 (0000ms, 0627ms total)
T1C90 028:890 JLINK_ClrBPEx(BPHandle = 0x00000003)  returns 0x00 (0000ms, 0627ms total)
T1C90 028:890 JLINK_ReadMemU32(0xE000ED30, 0x0001 Items, ...) -- CPU_ReadMem(4 bytes @ 0xE000ED30) - Data: 03 00 00 00  returns 0x01 (0001ms, 0628ms total)
T1C90 028:891 JLINK_ReadMemU32(0xE0001028, 0x0001 Items, ...) -- CPU_ReadMem(4 bytes @ 0xE0001028) - Data: 00 00 00 00  returns 0x01 (0000ms, 0628ms total)
T1C90 028:891 JLINK_ReadMemU32(0xE0001038, 0x0001 Items, ...) -- CPU_ReadMem(4 bytes @ 0xE0001038) - Data: 00 00 00 00  returns 0x01 (0001ms, 0629ms total)
T1C90 028:892 JLINK_ReadReg(R0)  returns 0x00000001 (0000ms, 0629ms total)
T1C90 028:892 JLINK_ReadReg(R1)  returns 0x00000001 (0000ms, 0629ms total)
T1C90 028:892 JLINK_ReadReg(R2)  returns 0x696D86DE (0000ms, 0629ms total)
T1C90 028:892 JLINK_ReadReg(R3)  returns 0x20005FAD (0000ms, 0629ms total)
T1C90 028:892 JLINK_ReadReg(R4)  returns 0x000007F4 (0000ms, 0629ms total)
T1C90 028:892 JLINK_ReadReg(R5)  returns 0x20000004 (0000ms, 0629ms total)
T1C90 028:892 JLINK_ReadReg(R6)  returns 0x00000000 (0000ms, 0629ms total)
T1C90 028:892 JLINK_ReadReg(R7)  returns 0x00000000 (0000ms, 0629ms total)
T1C90 028:892 JLINK_ReadReg(R8)  returns 0xFFFFFFFF (0000ms, 0629ms total)
T1C90 028:892 JLINK_ReadReg(R9)  returns 0xFFFFFFFF (0000ms, 0629ms total)
T1C90 028:892 JLINK_ReadReg(R10)  returns 0x000007F4 (0000ms, 0629ms total)
T1C90 028:892 JLINK_ReadReg(R11)  returns 0x000007F4 (0000ms, 0629ms total)
T1C90 028:892 JLINK_ReadReg(R12)  returns 0xFFFFFFFF (0000ms, 0629ms total)
T1C90 028:892 JLINK_ReadReg(R13 (SP))  returns 0x20001058 (0000ms, 0629ms total)
T1C90 028:892 JLINK_ReadReg(R14)  returns 0x00000721 (0001ms, 0630ms total)
T1C90 028:893 JLINK_ReadReg(R15 (PC))  returns 0x00000394 (0000ms, 0630ms total)
T1C90 028:893 JLINK_ReadReg(XPSR)  returns 0x01000000 (0000ms, 0630ms total)
T1C90 028:893 JLINK_ReadReg(MSP)  returns 0x20001058 (0000ms, 0630ms total)
T1C90 028:893 JLINK_ReadReg(PSP)  returns 0xFFFFFFFC (0000ms, 0630ms total)
T1C90 028:893 JLINK_ReadReg(CFBP)  returns 0x00000000 (0000ms, 0630ms total)
T0334 028:893 JLINK_ReadMem (0x20001064, 0x0004 Bytes, ...) -- CPU_ReadMem(64 bytes @ 0x20001040) -- Updating C cache (64 bytes @ 0x20001040) -- Read from C cache (4 bytes @ 0x20001064) - Data: 53 01 00 00  returns 0x00 (0001ms, 0631ms total)
T0334 028:894 JLINK_ReadMem (0x00000000, 0x0001 Bytes, ...) -- CPU_ReadMem(64 bytes @ 0x00000000) -- Updating C cache (64 bytes @ 0x00000000) -- Read from C cache (1 bytes @ 0x00000000) - Data: 68  returns 0x00 (0002ms, 0633ms total)
T0334 028:896 JLINK_ReadMem (0x00000000, 0x0004 Bytes, ...) -- Read from C cache (4 bytes @ 0x00000000) - Data: 68 10 00 20  returns 0x00 (0000ms, 0633ms total)
T0334 028:896 JLINK_ReadMem (0x20001058, 0x0001 Bytes, ...) -- Read from C cache (1 bytes @ 0x20001058) - Data: DE  returns 0x00 (0000ms, 0633ms total)
T0334 028:896 JLINK_ReadMem (0x20001059, 0x0001 Bytes, ...) -- Read from C cache (1 bytes @ 0x20001059) - Data: 86  returns 0x00 (0000ms, 0633ms total)
T0334 028:897 JLINK_ReadMem (0x2000105A, 0x0002 Bytes, ...) -- Read from C cache (2 bytes @ 0x2000105A) - Data: B7 01  returns 0x00 (0000ms, 0633ms total)
T0334 028:897 JLINK_ReadMem (0x2000105C, 0x0002 Bytes, ...) -- Read from C cache (2 bytes @ 0x2000105C) - Data: A5 01  returns 0x00 (0000ms, 0633ms total)
T0334 028:897 JLINK_ReadMem (0x2000105E, 0x0002 Bytes, ...) -- Read from C cache (2 bytes @ 0x2000105E) - Data: B5 02  returns 0x00 (0000ms, 0633ms total)
T0334 028:897 JLINK_ReadMem (0x20001060, 0x0001 Bytes, ...) -- Read from C cache (1 bytes @ 0x20001060) - Data: 01  returns 0x00 (0000ms, 0633ms total)
T0334 028:897 JLINK_ReadMem (0x20001061, 0x0001 Bytes, ...) -- Read from C cache (1 bytes @ 0x20001061) - Data: 01  returns 0x00 (0000ms, 0633ms total)
T1C90 030:014 JLINK_Step() -- CPU_ReadMem(64 bytes @ 0x00000380) -- Updating C cache (64 bytes @ 0x00000380) -- Read from C cache (2 bytes @ 0x00000394) -- CPU_ReadMem(4 bytes @ 0xE0001004) -- Simulated  returns 0x00 (0003ms, 0636ms total)
T1C90 030:017 JLINK_ReadReg(R15 (PC))  returns 0x00000396 (0000ms, 0636ms total)
T1C90 030:017 JLINK_ReadReg(XPSR)  returns 0x01000000 (0000ms, 0636ms total)
T1C90 030:017 JLINK_SetBPEx(Addr = 0x00000394, Type = 0xFFFFFFF2)  returns 0x00000004 (0000ms, 0636ms total)
T1C90 030:017 JLINK_Go() -- CPU_WriteMem(4 bytes @ 0xE0002000) -- CPU_WriteMem(4 bytes @ 0xE0001004) (0003ms, 0639ms total)
T1C90 030:120 JLINK_IsHalted()  returns TRUE (0004ms, 0643ms total)
T1C90 030:124 JLINK_Halt()  returns 0x00 (0000ms, 0639ms total)
T1C90 030:124 JLINK_IsHalted()  returns TRUE (0000ms, 0639ms total)
T1C90 030:124 JLINK_IsHalted()  returns TRUE (0000ms, 0639ms total)
T1C90 030:124 JLINK_IsHalted()  returns TRUE (0000ms, 0639ms total)
T1C90 030:124 JLINK_ReadReg(R15 (PC))  returns 0x00000394 (0000ms, 0639ms total)
T1C90 030:124 JLINK_ReadReg(XPSR)  returns 0x01000000 (0000ms, 0639ms total)
T1C90 030:124 JLINK_ClrBPEx(BPHandle = 0x00000004)  returns 0x00 (0000ms, 0639ms total)
T1C90 030:124 JLINK_ReadMemU32(0xE000ED30, 0x0001 Items, ...) -- CPU_ReadMem(4 bytes @ 0xE000ED30) - Data: 03 00 00 00  returns 0x01 (0001ms, 0640ms total)
T1C90 030:125 JLINK_ReadMemU32(0xE0001028, 0x0001 Items, ...) -- CPU_ReadMem(4 bytes @ 0xE0001028) - Data: 00 00 00 00  returns 0x01 (0000ms, 0640ms total)
T1C90 030:125 JLINK_ReadMemU32(0xE0001038, 0x0001 Items, ...) -- CPU_ReadMem(4 bytes @ 0xE0001038) - Data: 00 00 00 00  returns 0x01 (0001ms, 0641ms total)
T1C90 030:126 JLINK_ReadReg(R0)  returns 0x00000001 (0000ms, 0641ms total)
T1C90 030:126 JLINK_ReadReg(R1)  returns 0x00000000 (0000ms, 0641ms total)
T1C90 030:126 JLINK_ReadReg(R2)  returns 0x696F86DE (0000ms, 0641ms total)
T1C90 030:126 JLINK_ReadReg(R3)  returns 0x20000FAE (0000ms, 0641ms total)
T1C90 030:126 JLINK_ReadReg(R4)  returns 0x000007F4 (0000ms, 0641ms total)
T1C90 030:126 JLINK_ReadReg(R5)  returns 0x20000004 (0000ms, 0641ms total)
T1C90 030:126 JLINK_ReadReg(R6)  returns 0x00000000 (0000ms, 0641ms total)
T1C90 030:126 JLINK_ReadReg(R7)  returns 0x00000000 (0000ms, 0641ms total)
T1C90 030:126 JLINK_ReadReg(R8)  returns 0xFFFFFFFF (0000ms, 0641ms total)
T1C90 030:126 JLINK_ReadReg(R9)  returns 0xFFFFFFFF (0000ms, 0641ms total)
T1C90 030:126 JLINK_ReadReg(R10)  returns 0x000007F4 (0000ms, 0641ms total)
T1C90 030:126 JLINK_ReadReg(R11)  returns 0x000007F4 (0000ms, 0641ms total)
T1C90 030:126 JLINK_ReadReg(R12)  returns 0xFFFFFFFF (0000ms, 0641ms total)
T1C90 030:126 JLINK_ReadReg(R13 (SP))  returns 0x20001058 (0000ms, 0641ms total)
T1C90 030:126 JLINK_ReadReg(R14)  returns 0x00000721 (0001ms, 0642ms total)
T1C90 030:127 JLINK_ReadReg(R15 (PC))  returns 0x00000394 (0000ms, 0642ms total)
T1C90 030:127 JLINK_ReadReg(XPSR)  returns 0x01000000 (0000ms, 0642ms total)
T1C90 030:127 JLINK_ReadReg(MSP)  returns 0x20001058 (0000ms, 0642ms total)
T1C90 030:127 JLINK_ReadReg(PSP)  returns 0xFFFFFFFC (0000ms, 0642ms total)
T1C90 030:127 JLINK_ReadReg(CFBP)  returns 0x00000000 (0000ms, 0642ms total)
T0334 030:127 JLINK_ReadMem (0x20001064, 0x0004 Bytes, ...) -- CPU_ReadMem(64 bytes @ 0x20001040) -- Updating C cache (64 bytes @ 0x20001040) -- Read from C cache (4 bytes @ 0x20001064) - Data: 53 01 00 00  returns 0x00 (0001ms, 0643ms total)
T0334 030:128 JLINK_ReadMem (0x00000000, 0x0001 Bytes, ...) -- CPU_ReadMem(64 bytes @ 0x00000000) -- Updating C cache (64 bytes @ 0x00000000) -- Read from C cache (1 bytes @ 0x00000000) - Data: 68  returns 0x00 (0002ms, 0645ms total)
T0334 030:130 JLINK_ReadMem (0x00000000, 0x0004 Bytes, ...) -- Read from C cache (4 bytes @ 0x00000000) - Data: 68 10 00 20  returns 0x00 (0000ms, 0645ms total)
T0334 030:130 JLINK_ReadMem (0x20001058, 0x0001 Bytes, ...) -- Read from C cache (1 bytes @ 0x20001058) - Data: DE  returns 0x00 (0000ms, 0645ms total)
T0334 030:130 JLINK_ReadMem (0x20001059, 0x0001 Bytes, ...) -- Read from C cache (1 bytes @ 0x20001059) - Data: 86  returns 0x00 (0000ms, 0645ms total)
T0334 030:130 JLINK_ReadMem (0x2000105A, 0x0002 Bytes, ...) -- Read from C cache (2 bytes @ 0x2000105A) - Data: BF 01  returns 0x00 (0000ms, 0645ms total)
T0334 030:130 JLINK_ReadMem (0x2000105C, 0x0002 Bytes, ...) -- Read from C cache (2 bytes @ 0x2000105C) - Data: A4 01  returns 0x00 (0000ms, 0645ms total)
T0334 030:131 JLINK_ReadMem (0x2000105E, 0x0002 Bytes, ...) -- Read from C cache (2 bytes @ 0x2000105E) - Data: B8 02  returns 0x00 (0000ms, 0645ms total)
T0334 030:131 JLINK_ReadMem (0x20001060, 0x0001 Bytes, ...) -- Read from C cache (1 bytes @ 0x20001060) - Data: 01  returns 0x00 (0000ms, 0645ms total)
T0334 030:131 JLINK_ReadMem (0x20001061, 0x0001 Bytes, ...) -- Read from C cache (1 bytes @ 0x20001061) - Data: 01  returns 0x00 (0000ms, 0645ms total)
T1C90 031:103 JLINK_Step() -- CPU_ReadMem(64 bytes @ 0x00000380) -- Updating C cache (64 bytes @ 0x00000380) -- Read from C cache (2 bytes @ 0x00000394) -- CPU_ReadMem(4 bytes @ 0xE0001004) -- Simulated  returns 0x00 (0002ms, 0647ms total)
T1C90 031:105 JLINK_ReadReg(R15 (PC))  returns 0x00000396 (0000ms, 0647ms total)
T1C90 031:105 JLINK_ReadReg(XPSR)  returns 0x01000000 (0000ms, 0647ms total)
T1C90 031:105 JLINK_SetBPEx(Addr = 0x00000394, Type = 0xFFFFFFF2)  returns 0x00000005 (0000ms, 0647ms total)
T1C90 031:105 JLINK_Go() -- CPU_WriteMem(4 bytes @ 0xE0002000) -- CPU_WriteMem(4 bytes @ 0xE0001004) (0003ms, 0650ms total)
T1C90 031:208 JLINK_IsHalted()  returns TRUE (0004ms, 0654ms total)
T1C90 031:212 JLINK_Halt()  returns 0x00 (0000ms, 0650ms total)
T1C90 031:212 JLINK_IsHalted()  returns TRUE (0000ms, 0650ms total)
T1C90 031:212 JLINK_IsHalted()  returns TRUE (0000ms, 0650ms total)
T1C90 031:212 JLINK_IsHalted()  returns TRUE (0000ms, 0650ms total)
T1C90 031:212 JLINK_ReadReg(R15 (PC))  returns 0x00000394 (0000ms, 0650ms total)
T1C90 031:212 JLINK_ReadReg(XPSR)  returns 0x01000000 (0000ms, 0650ms total)
T1C90 031:212 JLINK_ClrBPEx(BPHandle = 0x00000005)  returns 0x00 (0000ms, 0650ms total)
T1C90 031:212 JLINK_ReadMemU32(0xE000ED30, 0x0001 Items, ...) -- CPU_ReadMem(4 bytes @ 0xE000ED30) - Data: 03 00 00 00  returns 0x01 (0001ms, 0651ms total)
T1C90 031:213 JLINK_ReadMemU32(0xE0001028, 0x0001 Items, ...) -- CPU_ReadMem(4 bytes @ 0xE0001028) - Data: 00 00 00 00  returns 0x01 (0000ms, 0651ms total)
T1C90 031:213 JLINK_ReadMemU32(0xE0001038, 0x0001 Items, ...) -- CPU_ReadMem(4 bytes @ 0xE0001038) - Data: 00 00 00 00  returns 0x01 (0001ms, 0652ms total)
T1C90 031:214 JLINK_ReadReg(R0)  returns 0x00000001 (0000ms, 0652ms total)
T1C90 031:214 JLINK_ReadReg(R1)  returns 0x00000002 (0000ms, 0652ms total)
T1C90 031:214 JLINK_ReadReg(R2)  returns 0x6870847B (0000ms, 0652ms total)
T1C90 031:214 JLINK_ReadReg(R3)  returns 0x200093AD (0000ms, 0652ms total)
T1C90 031:214 JLINK_ReadReg(R4)  returns 0x000007F4 (0000ms, 0652ms total)
T1C90 031:214 JLINK_ReadReg(R5)  returns 0x20000004 (0000ms, 0652ms total)
T1C90 031:214 JLINK_ReadReg(R6)  returns 0x00000000 (0000ms, 0652ms total)
T1C90 031:214 JLINK_ReadReg(R7)  returns 0x00000000 (0000ms, 0652ms total)
T1C90 031:214 JLINK_ReadReg(R8)  returns 0xFFFFFFFF (0000ms, 0652ms total)
T1C90 031:214 JLINK_ReadReg(R9)  returns 0xFFFFFFFF (0000ms, 0652ms total)
T1C90 031:214 JLINK_ReadReg(R10)  returns 0x000007F4 (0000ms, 0652ms total)
T1C90 031:214 JLINK_ReadReg(R11)  returns 0x000007F4 (0000ms, 0652ms total)
T1C90 031:214 JLINK_ReadReg(R12)  returns 0xFFFFFFFF (0000ms, 0652ms total)
T1C90 031:214 JLINK_ReadReg(R13 (SP))  returns 0x20001058 (0000ms, 0652ms total)
T1C90 031:214 JLINK_ReadReg(R14)  returns 0x00000721 (0000ms, 0652ms total)
T1C90 031:214 JLINK_ReadReg(R15 (PC))  returns 0x00000394 (0000ms, 0652ms total)
T1C90 031:214 JLINK_ReadReg(XPSR)  returns 0x01000000 (0000ms, 0652ms total)
T1C90 031:214 JLINK_ReadReg(MSP)  returns 0x20001058 (0000ms, 0652ms total)
T1C90 031:214 JLINK_ReadReg(PSP)  returns 0xFFFFFFFC (0001ms, 0653ms total)
T1C90 031:215 JLINK_ReadReg(CFBP)  returns 0x00000000 (0000ms, 0653ms total)
T0334 031:215 JLINK_ReadMem (0x20001064, 0x0004 Bytes, ...) -- CPU_ReadMem(64 bytes @ 0x20001040) -- Updating C cache (64 bytes @ 0x20001040) -- Read from C cache (4 bytes @ 0x20001064) - Data: 53 01 00 00  returns 0x00 (0001ms, 0654ms total)
T0334 031:216 JLINK_ReadMem (0x00000000, 0x0001 Bytes, ...) -- CPU_ReadMem(64 bytes @ 0x00000000) -- Updating C cache (64 bytes @ 0x00000000) -- Read from C cache (1 bytes @ 0x00000000) - Data: 68  returns 0x00 (0002ms, 0656ms total)
T0334 031:218 JLINK_ReadMem (0x00000000, 0x0004 Bytes, ...) -- Read from C cache (4 bytes @ 0x00000000) - Data: 68 10 00 20  returns 0x00 (0000ms, 0656ms total)
T0334 031:218 JLINK_ReadMem (0x20001058, 0x0001 Bytes, ...) -- Read from C cache (1 bytes @ 0x20001058) - Data: 7B  returns 0x00 (0000ms, 0656ms total)
T0334 031:218 JLINK_ReadMem (0x20001059, 0x0001 Bytes, ...) -- Read from C cache (1 bytes @ 0x20001059) - Data: 84  returns 0x00 (0000ms, 0656ms total)
T0334 031:218 JLINK_ReadMem (0x2000105A, 0x0002 Bytes, ...) -- Read from C cache (2 bytes @ 0x2000105A) - Data: C0 01  returns 0x00 (0000ms, 0656ms total)
T0334 031:218 JLINK_ReadMem (0x2000105C, 0x0002 Bytes, ...) -- Read from C cache (2 bytes @ 0x2000105C) - Data: A1 01  returns 0x00 (0000ms, 0656ms total)
T0334 031:219 JLINK_ReadMem (0x2000105E, 0x0002 Bytes, ...) -- Read from C cache (2 bytes @ 0x2000105E) - Data: B6 02  returns 0x00 (0000ms, 0656ms total)
T0334 031:219 JLINK_ReadMem (0x20001060, 0x0001 Bytes, ...) -- Read from C cache (1 bytes @ 0x20001060) - Data: 01  returns 0x00 (0000ms, 0656ms total)
T0334 031:219 JLINK_ReadMem (0x20001061, 0x0001 Bytes, ...) -- Read from C cache (1 bytes @ 0x20001061) - Data: 01  returns 0x00 (0000ms, 0656ms total)
T1C90 032:031 JLINK_Step() -- CPU_ReadMem(64 bytes @ 0x00000380) -- Updating C cache (64 bytes @ 0x00000380) -- Read from C cache (2 bytes @ 0x00000394) -- CPU_ReadMem(4 bytes @ 0xE0001004) -- Simulated  returns 0x00 (0002ms, 0659ms total)
T1C90 032:033 JLINK_ReadReg(R15 (PC))  returns 0x00000396 (0000ms, 0659ms total)
T1C90 032:033 JLINK_ReadReg(XPSR)  returns 0x01000000 (0000ms, 0659ms total)
T1C90 032:033 JLINK_SetBPEx(Addr = 0x00000394, Type = 0xFFFFFFF2)  returns 0x00000006 (0000ms, 0659ms total)
T1C90 032:033 JLINK_Go() -- CPU_WriteMem(4 bytes @ 0xE0002000) -- CPU_WriteMem(4 bytes @ 0xE0001004) (0003ms, 0662ms total)
T1C90 032:136 JLINK_IsHalted()  returns TRUE (0004ms, 0666ms total)
T1C90 032:140 JLINK_Halt()  returns 0x00 (0000ms, 0662ms total)
T1C90 032:140 JLINK_IsHalted()  returns TRUE (0000ms, 0662ms total)
T1C90 032:140 JLINK_IsHalted()  returns TRUE (0000ms, 0662ms total)
T1C90 032:140 JLINK_IsHalted()  returns TRUE (0000ms, 0662ms total)
T1C90 032:140 JLINK_ReadReg(R15 (PC))  returns 0x00000394 (0000ms, 0662ms total)
T1C90 032:140 JLINK_ReadReg(XPSR)  returns 0x01000000 (0000ms, 0662ms total)
T1C90 032:140 JLINK_ClrBPEx(BPHandle = 0x00000006)  returns 0x00 (0000ms, 0662ms total)
T1C90 032:140 JLINK_ReadMemU32(0xE000ED30, 0x0001 Items, ...) -- CPU_ReadMem(4 bytes @ 0xE000ED30) - Data: 03 00 00 00  returns 0x01 (0001ms, 0663ms total)
T1C90 032:141 JLINK_ReadMemU32(0xE0001028, 0x0001 Items, ...) -- CPU_ReadMem(4 bytes @ 0xE0001028) - Data: 00 00 00 00  returns 0x01 (0001ms, 0664ms total)
T1C90 032:142 JLINK_ReadMemU32(0xE0001038, 0x0001 Items, ...) -- CPU_ReadMem(4 bytes @ 0xE0001038) - Data: 00 00 00 00  returns 0x01 (0000ms, 0664ms total)
T1C90 032:142 JLINK_ReadReg(R0)  returns 0x00000001 (0000ms, 0664ms total)
T1C90 032:142 JLINK_ReadReg(R1)  returns 0x00000001 (0001ms, 0665ms total)
T1C90 032:143 JLINK_ReadReg(R2)  returns 0x686B851C (0000ms, 0665ms total)
T1C90 032:143 JLINK_ReadReg(R3)  returns 0x20007BAB (0000ms, 0665ms total)
T1C90 032:143 JLINK_ReadReg(R4)  returns 0x000007F4 (0000ms, 0665ms total)
T1C90 032:143 JLINK_ReadReg(R5)  returns 0x20000004 (0000ms, 0665ms total)
T1C90 032:143 JLINK_ReadReg(R6)  returns 0x00000000 (0000ms, 0665ms total)
T1C90 032:143 JLINK_ReadReg(R7)  returns 0x00000000 (0000ms, 0665ms total)
T1C90 032:143 JLINK_ReadReg(R8)  returns 0xFFFFFFFF (0000ms, 0665ms total)
T1C90 032:143 JLINK_ReadReg(R9)  returns 0xFFFFFFFF (0000ms, 0665ms total)
T1C90 032:143 JLINK_ReadReg(R10)  returns 0x000007F4 (0000ms, 0665ms total)
T1C90 032:143 JLINK_ReadReg(R11)  returns 0x000007F4 (0000ms, 0665ms total)
T1C90 032:143 JLINK_ReadReg(R12)  returns 0xFFFFFFFF (0000ms, 0665ms total)
T1C90 032:143 JLINK_ReadReg(R13 (SP))  returns 0x20001058 (0000ms, 0665ms total)
T1C90 032:143 JLINK_ReadReg(R14)  returns 0x00000721 (0000ms, 0665ms total)
T1C90 032:143 JLINK_ReadReg(R15 (PC))  returns 0x00000394 (0000ms, 0665ms total)
T1C90 032:143 JLINK_ReadReg(XPSR)  returns 0x01000000 (0000ms, 0665ms total)
T1C90 032:143 JLINK_ReadReg(MSP)  returns 0x20001058 (0000ms, 0665ms total)
T1C90 032:143 JLINK_ReadReg(PSP)  returns 0xFFFFFFFC (0000ms, 0665ms total)
T1C90 032:143 JLINK_ReadReg(CFBP)  returns 0x00000000 (0000ms, 0665ms total)
T0334 032:144 JLINK_ReadMem (0x20001064, 0x0004 Bytes, ...) -- CPU_ReadMem(64 bytes @ 0x20001040) -- Updating C cache (64 bytes @ 0x20001040) -- Read from C cache (4 bytes @ 0x20001064) - Data: 53 01 00 00  returns 0x00 (0001ms, 0666ms total)
T0334 032:145 JLINK_ReadMem (0x00000000, 0x0001 Bytes, ...) -- CPU_ReadMem(64 bytes @ 0x00000000) -- Updating C cache (64 bytes @ 0x00000000) -- Read from C cache (1 bytes @ 0x00000000) - Data: 68  returns 0x00 (0002ms, 0668ms total)
T0334 032:147 JLINK_ReadMem (0x00000000, 0x0004 Bytes, ...) -- Read from C cache (4 bytes @ 0x00000000) - Data: 68 10 00 20  returns 0x00 (0000ms, 0668ms total)
T0334 032:147 JLINK_ReadMem (0x20001058, 0x0001 Bytes, ...) -- Read from C cache (1 bytes @ 0x20001058) - Data: 1C  returns 0x00 (0000ms, 0668ms total)
T0334 032:147 JLINK_ReadMem (0x20001059, 0x0001 Bytes, ...) -- Read from C cache (1 bytes @ 0x20001059) - Data: 85  returns 0x00 (0000ms, 0668ms total)
T0334 032:147 JLINK_ReadMem (0x2000105A, 0x0002 Bytes, ...) -- Read from C cache (2 bytes @ 0x2000105A) - Data: AE 01  returns 0x00 (0000ms, 0668ms total)
T0334 032:148 JLINK_ReadMem (0x2000105C, 0x0002 Bytes, ...) -- Read from C cache (2 bytes @ 0x2000105C) - Data: A3 01  returns 0x00 (0000ms, 0668ms total)
T0334 032:148 JLINK_ReadMem (0x2000105E, 0x0002 Bytes, ...) -- Read from C cache (2 bytes @ 0x2000105E) - Data: AD 02  returns 0x00 (0000ms, 0668ms total)
T0334 032:148 JLINK_ReadMem (0x20001060, 0x0001 Bytes, ...) -- Read from C cache (1 bytes @ 0x20001060) - Data: 01  returns 0x00 (0000ms, 0668ms total)
T0334 032:148 JLINK_ReadMem (0x20001061, 0x0001 Bytes, ...) -- Read from C cache (1 bytes @ 0x20001061) - Data: 01  returns 0x00 (0000ms, 0668ms total)
T1C90 033:551 JLINK_Step() -- CPU_ReadMem(64 bytes @ 0x00000380) -- Updating C cache (64 bytes @ 0x00000380) -- Read from C cache (2 bytes @ 0x00000394) -- CPU_ReadMem(4 bytes @ 0xE0001004) -- Simulated  returns 0x00 (0003ms, 0671ms total)
T1C90 033:554 JLINK_ReadReg(R15 (PC))  returns 0x00000396 (0000ms, 0671ms total)
T1C90 033:554 JLINK_ReadReg(XPSR)  returns 0x01000000 (0000ms, 0671ms total)
T1C90 033:554 JLINK_SetBPEx(Addr = 0x00000394, Type = 0xFFFFFFF2)  returns 0x00000007 (0000ms, 0671ms total)
T1C90 033:554 JLINK_Go() -- CPU_WriteMem(4 bytes @ 0xE0002000) -- CPU_WriteMem(4 bytes @ 0xE0001004) (0003ms, 0674ms total)
T1C90 033:657 JLINK_IsHalted()  returns TRUE (0004ms, 0678ms total)
T1C90 033:661 JLINK_Halt()  returns 0x00 (0000ms, 0674ms total)
T1C90 033:661 JLINK_IsHalted()  returns TRUE (0000ms, 0674ms total)
T1C90 033:661 JLINK_IsHalted()  returns TRUE (0000ms, 0674ms total)
T1C90 033:661 JLINK_IsHalted()  returns TRUE (0000ms, 0674ms total)
T1C90 033:661 JLINK_ReadReg(R15 (PC))  returns 0x00000394 (0000ms, 0674ms total)
T1C90 033:661 JLINK_ReadReg(XPSR)  returns 0x01000000 (0000ms, 0674ms total)
T1C90 033:661 JLINK_ClrBPEx(BPHandle = 0x00000007)  returns 0x00 (0000ms, 0674ms total)
T1C90 033:661 JLINK_ReadMemU32(0xE000ED30, 0x0001 Items, ...) -- CPU_ReadMem(4 bytes @ 0xE000ED30) - Data: 03 00 00 00  returns 0x01 (0001ms, 0675ms total)
T1C90 033:662 JLINK_ReadMemU32(0xE0001028, 0x0001 Items, ...) -- CPU_ReadMem(4 bytes @ 0xE0001028) - Data: 00 00 00 00  returns 0x01 (0001ms, 0676ms total)
T1C90 033:663 JLINK_ReadMemU32(0xE0001038, 0x0001 Items, ...) -- CPU_ReadMem(4 bytes @ 0xE0001038) - Data: 00 00 00 00  returns 0x01 (0000ms, 0676ms total)
T1C90 033:663 JLINK_ReadReg(R0)  returns 0x00000001 (0000ms, 0676ms total)
T1C90 033:663 JLINK_ReadReg(R1)  returns 0x00000002 (0000ms, 0676ms total)
T1C90 033:663 JLINK_ReadReg(R2)  returns 0x656EE87E (0000ms, 0676ms total)
T1C90 033:663 JLINK_ReadReg(R3)  returns 0x2000AFAB (0000ms, 0676ms total)
T1C90 033:663 JLINK_ReadReg(R4)  returns 0x000007F4 (0000ms, 0676ms total)
T1C90 033:663 JLINK_ReadReg(R5)  returns 0x20000004 (0000ms, 0676ms total)
T1C90 033:663 JLINK_ReadReg(R6)  returns 0x00000000 (0000ms, 0676ms total)
T1C90 033:663 JLINK_ReadReg(R7)  returns 0x00000000 (0000ms, 0676ms total)
T1C90 033:663 JLINK_ReadReg(R8)  returns 0xFFFFFFFF (0000ms, 0676ms total)
T1C90 033:663 JLINK_ReadReg(R9)  returns 0xFFFFFFFF (0000ms, 0676ms total)
T1C90 033:663 JLINK_ReadReg(R10)  returns 0x000007F4 (0000ms, 0676ms total)
T1C90 033:664 JLINK_ReadReg(R11)  returns 0x000007F4 (0000ms, 0676ms total)
T1C90 033:664 JLINK_ReadReg(R12)  returns 0xFFFFFFFF (0000ms, 0676ms total)
T1C90 033:664 JLINK_ReadReg(R13 (SP))  returns 0x20001058 (0000ms, 0676ms total)
T1C90 033:664 JLINK_ReadReg(R14)  returns 0x00000721 (0000ms, 0676ms total)
T1C90 033:664 JLINK_ReadReg(R15 (PC))  returns 0x00000394 (0000ms, 0676ms total)
T1C90 033:664 JLINK_ReadReg(XPSR)  returns 0x01000000 (0000ms, 0676ms total)
T1C90 033:664 JLINK_ReadReg(MSP)  returns 0x20001058 (0000ms, 0676ms total)
T1C90 033:664 JLINK_ReadReg(PSP)  returns 0xFFFFFFFC (0000ms, 0676ms total)
T1C90 033:664 JLINK_ReadReg(CFBP)  returns 0x00000000 (0000ms, 0676ms total)
T0334 033:664 JLINK_ReadMem (0x20001064, 0x0004 Bytes, ...) -- CPU_ReadMem(64 bytes @ 0x20001040) -- Updating C cache (64 bytes @ 0x20001040) -- Read from C cache (4 bytes @ 0x20001064) - Data: 53 01 00 00  returns 0x00 (0001ms, 0677ms total)
T0334 033:665 JLINK_ReadMem (0x00000000, 0x0001 Bytes, ...) -- CPU_ReadMem(64 bytes @ 0x00000000) -- Updating C cache (64 bytes @ 0x00000000) -- Read from C cache (1 bytes @ 0x00000000) - Data: 68  returns 0x00 (0002ms, 0679ms total)
T0334 033:667 JLINK_ReadMem (0x00000000, 0x0004 Bytes, ...) -- Read from C cache (4 bytes @ 0x00000000) - Data: 68 10 00 20  returns 0x00 (0000ms, 0679ms total)
T0334 033:667 JLINK_ReadMem (0x20001058, 0x0001 Bytes, ...) -- Read from C cache (1 bytes @ 0x20001058) - Data: 7E  returns 0x00 (0000ms, 0679ms total)
T0334 033:667 JLINK_ReadMem (0x20001059, 0x0001 Bytes, ...) -- Read from C cache (1 bytes @ 0x20001059) - Data: E8  returns 0x00 (0000ms, 0679ms total)
T0334 033:668 JLINK_ReadMem (0x2000105A, 0x0002 Bytes, ...) -- Read from C cache (2 bytes @ 0x2000105A) - Data: BB 01  returns 0x00 (0000ms, 0679ms total)
T0334 033:668 JLINK_ReadMem (0x2000105C, 0x0002 Bytes, ...) -- Read from C cache (2 bytes @ 0x2000105C) - Data: 96 01  returns 0x00 (0000ms, 0679ms total)
T0334 033:668 JLINK_ReadMem (0x2000105E, 0x0002 Bytes, ...) -- Read from C cache (2 bytes @ 0x2000105E) - Data: AE 02  returns 0x00 (0000ms, 0679ms total)
T0334 033:668 JLINK_ReadMem (0x20001060, 0x0001 Bytes, ...) -- Read from C cache (1 bytes @ 0x20001060) - Data: 01  returns 0x00 (0000ms, 0679ms total)
T0334 033:668 JLINK_ReadMem (0x20001061, 0x0001 Bytes, ...) -- Read from C cache (1 bytes @ 0x20001061) - Data: 01  returns 0x00 (0000ms, 0679ms total)
T1C90 034:711 JLINK_Step() -- CPU_ReadMem(64 bytes @ 0x00000380) -- Updating C cache (64 bytes @ 0x00000380) -- Read from C cache (2 bytes @ 0x00000394) -- CPU_ReadMem(4 bytes @ 0xE0001004) -- Simulated  returns 0x00 (0003ms, 0682ms total)
T1C90 034:714 JLINK_ReadReg(R15 (PC))  returns 0x00000396 (0000ms, 0682ms total)
T1C90 034:714 JLINK_ReadReg(XPSR)  returns 0x01000000 (0000ms, 0682ms total)
T1C90 034:714 JLINK_SetBPEx(Addr = 0x00000394, Type = 0xFFFFFFF2)  returns 0x00000008 (0000ms, 0682ms total)
T1C90 034:714 JLINK_Go() -- CPU_WriteMem(4 bytes @ 0xE0002000) -- CPU_WriteMem(4 bytes @ 0xE0001004) (0003ms, 0685ms total)
T1C90 034:817 JLINK_IsHalted()  returns TRUE (0004ms, 0689ms total)
T1C90 034:821 JLINK_Halt()  returns 0x00 (0000ms, 0685ms total)
T1C90 034:821 JLINK_IsHalted()  returns TRUE (0000ms, 0685ms total)
T1C90 034:821 JLINK_IsHalted()  returns TRUE (0000ms, 0685ms total)
T1C90 034:821 JLINK_IsHalted()  returns TRUE (0000ms, 0685ms total)
T1C90 034:821 JLINK_ReadReg(R15 (PC))  returns 0x00000394 (0000ms, 0685ms total)
T1C90 034:821 JLINK_ReadReg(XPSR)  returns 0x01000000 (0000ms, 0685ms total)
T1C90 034:821 JLINK_ClrBPEx(BPHandle = 0x00000008)  returns 0x00 (0000ms, 0685ms total)
T1C90 034:821 JLINK_ReadMemU32(0xE000ED30, 0x0001 Items, ...) -- CPU_ReadMem(4 bytes @ 0xE000ED30) - Data: 03 00 00 00  returns 0x01 (0001ms, 0686ms total)
T1C90 034:822 JLINK_ReadMemU32(0xE0001028, 0x0001 Items, ...) -- CPU_ReadMem(4 bytes @ 0xE0001028) - Data: 00 00 00 00  returns 0x01 (0000ms, 0686ms total)
T1C90 034:822 JLINK_ReadMemU32(0xE0001038, 0x0001 Items, ...) -- CPU_ReadMem(4 bytes @ 0xE0001038) - Data: 00 00 00 00  returns 0x01 (0001ms, 0687ms total)
T1C90 034:823 JLINK_ReadReg(R0)  returns 0x00000001 (0000ms, 0687ms total)
T1C90 034:823 JLINK_ReadReg(R1)  returns 0x00000001 (0000ms, 0687ms total)
T1C90 034:823 JLINK_ReadReg(R2)  returns 0x656D1F7B (0000ms, 0687ms total)
T1C90 034:823 JLINK_ReadReg(R3)  returns 0x200047AA (0000ms, 0687ms total)
T1C90 034:823 JLINK_ReadReg(R4)  returns 0x000007F4 (0000ms, 0687ms total)
T1C90 034:823 JLINK_ReadReg(R5)  returns 0x20000004 (0000ms, 0687ms total)
T1C90 034:823 JLINK_ReadReg(R6)  returns 0x00000000 (0000ms, 0687ms total)
T1C90 034:823 JLINK_ReadReg(R7)  returns 0x00000000 (0000ms, 0687ms total)
T1C90 034:823 JLINK_ReadReg(R8)  returns 0xFFFFFFFF (0000ms, 0687ms total)
T1C90 034:823 JLINK_ReadReg(R9)  returns 0xFFFFFFFF (0000ms, 0687ms total)
T1C90 034:823 JLINK_ReadReg(R10)  returns 0x000007F4 (0000ms, 0687ms total)
T1C90 034:823 JLINK_ReadReg(R11)  returns 0x000007F4 (0000ms, 0687ms total)
T1C90 034:823 JLINK_ReadReg(R12)  returns 0xFFFFFFFF (0000ms, 0687ms total)
T1C90 034:823 JLINK_ReadReg(R13 (SP))  returns 0x20001058 (0000ms, 0687ms total)
T1C90 034:823 JLINK_ReadReg(R14)  returns 0x00000721 (0000ms, 0687ms total)
T1C90 034:823 JLINK_ReadReg(R15 (PC))  returns 0x00000394 (0000ms, 0687ms total)
T1C90 034:823 JLINK_ReadReg(XPSR)  returns 0x01000000 (0000ms, 0687ms total)
T1C90 034:823 JLINK_ReadReg(MSP)  returns 0x20001058 (0000ms, 0687ms total)
T1C90 034:823 JLINK_ReadReg(PSP)  returns 0xFFFFFFFC (0001ms, 0688ms total)
T1C90 034:824 JLINK_ReadReg(CFBP)  returns 0x00000000 (0000ms, 0688ms total)
T0334 034:824 JLINK_ReadMem (0x20001064, 0x0004 Bytes, ...) -- CPU_ReadMem(64 bytes @ 0x20001040) -- Updating C cache (64 bytes @ 0x20001040) -- Read from C cache (4 bytes @ 0x20001064) - Data: 53 01 00 00  returns 0x00 (0001ms, 0689ms total)
T0334 034:825 JLINK_ReadMem (0x00000000, 0x0001 Bytes, ...) -- CPU_ReadMem(64 bytes @ 0x00000000) -- Updating C cache (64 bytes @ 0x00000000) -- Read from C cache (1 bytes @ 0x00000000) - Data: 68  returns 0x00 (0002ms, 0691ms total)
T0334 034:827 JLINK_ReadMem (0x00000000, 0x0004 Bytes, ...) -- Read from C cache (4 bytes @ 0x00000000) - Data: 68 10 00 20  returns 0x00 (0000ms, 0691ms total)
T0334 034:827 JLINK_ReadMem (0x20001058, 0x0001 Bytes, ...) -- Read from C cache (1 bytes @ 0x20001058) - Data: 7B  returns 0x00 (0000ms, 0691ms total)
T0334 034:827 JLINK_ReadMem (0x20001059, 0x0001 Bytes, ...) -- Read from C cache (1 bytes @ 0x20001059) - Data: 1F  returns 0x00 (0000ms, 0691ms total)
T0334 034:827 JLINK_ReadMem (0x2000105A, 0x0002 Bytes, ...) -- Read from C cache (2 bytes @ 0x2000105A) - Data: B5 01  returns 0x00 (0000ms, 0691ms total)
T0334 034:827 JLINK_ReadMem (0x2000105C, 0x0002 Bytes, ...) -- Read from C cache (2 bytes @ 0x2000105C) - Data: 94 01  returns 0x00 (0000ms, 0691ms total)
T0334 034:828 JLINK_ReadMem (0x2000105E, 0x0002 Bytes, ...) -- Read from C cache (2 bytes @ 0x2000105E) - Data: A9 02  returns 0x00 (0000ms, 0691ms total)
T0334 034:828 JLINK_ReadMem (0x20001060, 0x0001 Bytes, ...) -- Read from C cache (1 bytes @ 0x20001060) - Data: 01  returns 0x00 (0000ms, 0691ms total)
T0334 034:828 JLINK_ReadMem (0x20001061, 0x0001 Bytes, ...) -- Read from C cache (1 bytes @ 0x20001061) - Data: 01  returns 0x00 (0000ms, 0691ms total)
T1C90 036:479 JLINK_Step() -- CPU_ReadMem(64 bytes @ 0x00000380) -- Updating C cache (64 bytes @ 0x00000380) -- Read from C cache (2 bytes @ 0x00000394) -- CPU_ReadMem(4 bytes @ 0xE0001004) -- Simulated  returns 0x00 (0003ms, 0694ms total)
T1C90 036:482 JLINK_ReadReg(R15 (PC))  returns 0x00000396 (0000ms, 0694ms total)
T1C90 036:482 JLINK_ReadReg(XPSR)  returns 0x01000000 (0000ms, 0694ms total)
T1C90 036:482 JLINK_SetBPEx(Addr = 0x00000394, Type = 0xFFFFFFF2)  returns 0x00000009 (0000ms, 0694ms total)
T1C90 036:482 JLINK_Go() -- CPU_WriteMem(4 bytes @ 0xE0002000) -- CPU_WriteMem(4 bytes @ 0xE0001004) (0003ms, 0697ms total)
T1C90 036:585 JLINK_IsHalted()  returns TRUE (0004ms, 0701ms total)
T1C90 036:589 JLINK_Halt()  returns 0x00 (0000ms, 0697ms total)
T1C90 036:589 JLINK_IsHalted()  returns TRUE (0000ms, 0697ms total)
T1C90 036:589 JLINK_IsHalted()  returns TRUE (0000ms, 0697ms total)
T1C90 036:589 JLINK_IsHalted()  returns TRUE (0000ms, 0697ms total)
T1C90 036:589 JLINK_ReadReg(R15 (PC))  returns 0x00000394 (0000ms, 0697ms total)
T1C90 036:589 JLINK_ReadReg(XPSR)  returns 0x01000000 (0000ms, 0697ms total)
T1C90 036:589 JLINK_ClrBPEx(BPHandle = 0x00000009)  returns 0x00 (0000ms, 0697ms total)
T1C90 036:589 JLINK_ReadMemU32(0xE000ED30, 0x0001 Items, ...) -- CPU_ReadMem(4 bytes @ 0xE000ED30) - Data: 03 00 00 00  returns 0x01 (0001ms, 0698ms total)
T1C90 036:590 JLINK_ReadMemU32(0xE0001028, 0x0001 Items, ...) -- CPU_ReadMem(4 bytes @ 0xE0001028) - Data: 00 00 00 00  returns 0x01 (0000ms, 0698ms total)
T1C90 036:590 JLINK_ReadMemU32(0xE0001038, 0x0001 Items, ...) -- CPU_ReadMem(4 bytes @ 0xE0001038) - Data: 00 00 00 00  returns 0x01 (0001ms, 0699ms total)
T1C90 036:591 JLINK_ReadReg(R0)  returns 0x00000001 (0000ms, 0699ms total)
T1C90 036:591 JLINK_ReadReg(R1)  returns 0x00000001 (0000ms, 0699ms total)
T1C90 036:591 JLINK_ReadReg(R2)  returns 0x7987847B (0000ms, 0699ms total)
T1C90 036:591 JLINK_ReadReg(R3)  returns 0x20006BB6 (0000ms, 0699ms total)
T1C90 036:591 JLINK_ReadReg(R4)  returns 0x000007F4 (0000ms, 0699ms total)
T1C90 036:591 JLINK_ReadReg(R5)  returns 0x20000004 (0000ms, 0699ms total)
T1C90 036:591 JLINK_ReadReg(R6)  returns 0x00000000 (0000ms, 0699ms total)
T1C90 036:591 JLINK_ReadReg(R7)  returns 0x00000000 (0000ms, 0699ms total)
T1C90 036:591 JLINK_ReadReg(R8)  returns 0xFFFFFFFF (0000ms, 0699ms total)
T1C90 036:591 JLINK_ReadReg(R9)  returns 0xFFFFFFFF (0000ms, 0699ms total)
T1C90 036:591 JLINK_ReadReg(R10)  returns 0x000007F4 (0000ms, 0699ms total)
T1C90 036:591 JLINK_ReadReg(R11)  returns 0x000007F4 (0000ms, 0699ms total)
T1C90 036:591 JLINK_ReadReg(R12)  returns 0xFFFFFFFF (0000ms, 0699ms total)
T1C90 036:591 JLINK_ReadReg(R13 (SP))  returns 0x20001058 (0000ms, 0699ms total)
T1C90 036:591 JLINK_ReadReg(R14)  returns 0x00000721 (0000ms, 0699ms total)
T1C90 036:591 JLINK_ReadReg(R15 (PC))  returns 0x00000394 (0000ms, 0699ms total)
T1C90 036:591 JLINK_ReadReg(XPSR)  returns 0x01000000 (0000ms, 0699ms total)
